xrun(64): 22.09-s003: (c) Copyright 1995-2022 Cadence Design Systems, Inc.
TOOL:	xrun(64)	22.09-s003: Started on Sep 09, 2025 at 05:06:58 EDT
xrun
	-clean
	-input probe.tcl
	-uvm
	./rtl_top.sv
	testbench.sv
	-access +rwc
xrun: *N,CLEAN: Removing existing directory ./xcelium.d.
Compiling UVM packages (uvm_pkg.sv cdns_uvm_pkg.sv) using uvmhome location /home/install/XCELIUM2209/tools/methodology/UVM/CDNS-1.1d
file: ./rtl_top.sv
	module worklib.ahb:v
		errors: 0, warnings: 0
	module worklib.apb_controller:v
		errors: 0, warnings: 0
	module worklib.apb:v
		errors: 0, warnings: 0
	interface worklib.bridge_if:v
		errors: 0, warnings: 0
	module worklib.rtl_top:sv
		errors: 0, warnings: 0
file: testbench.sv
	package worklib.test_pkg:sv
		errors: 0, warnings: 0
	module worklib.top:sv
		errors: 0, warnings: 0
		Caching library 'worklib' ....... Done
	Elaborating the design hierarchy:
	Top level design units:
		uvm_pkg
		cdns_uvmapi
		cdns_assert2uvm_pkg
		cdns_uvm_pkg
		test_pkg
		top
xmelab: *W,DSEMEL: This SystemVerilog design will be simulated as per IEEE 1800-2009 SystemVerilog simulation semantics. Use -disable_sem2009 option for turning off SV 2009 simulation semantics.
	Building instance overlay tables: .................... Done
	Generating native compiled code:
		worklib.apb:v <0x74fc0b87>
			streams:   4, words:   614
		worklib.apb_controller:v <0x7a980a8e>
			streams:  27, words: 41712
		worklib.ahb:v <0x781ef3b5>
			streams:  52, words: 39402
		worklib.top:sv <0x0640a2aa>
			streams: 4038, words: 4173285
		worklib.cdns_uvm_pkg:sv <0x64b2cb56>
			streams: 174, words: 276871
		worklib.cdns_uvmapi:svp <0x315b9559>
			streams:  27, words: 30300
		worklib.cdns_assert2uvm_pkg:sv <0x751d4901>
			streams:   3, words:  1777
		worklib.uvm_pkg:sv <0x16e432ea>
			streams: 4535, words: 7084076
		worklib.bridge_if:v <0x13c0fd06>
			streams:  44, words: 28534
	Building instance specific data structures.
	Loading native compiled code:     .................... Done
	Design hierarchy summary:
		                       Instances  Unique
		Modules:                       5       5
		Interfaces:                    1       1
		Verilog packages:              5       5
		Registers:                 20970   12844
		Scalar wires:                 19       -
		Vectored wires:               24       -
		Named events:                  4      12
		Always blocks:                25      25
		Initial blocks:              713     301
		Clocking blocks:               4       4
		Clocking items:               28      28
		Parallel blocks:              28      29
		Cont. assignments:            11      14
		Pseudo assignments:           17      17
		Assertions:                  133     133
		SV Class declarations:       335     448
		SV Class specializations:    689     689
		Simulation timescale:        1ps
	Writing initial simulation snapshot: worklib.top:sv
Loading snapshot worklib.top:sv .................... Done
SVSEED default: 1
xmsim: *W,DSEM2009: This SystemVerilog design is simulated as per IEEE 1800-2009 SystemVerilog simulation semantics. Use -disable_sem2009 option for turning off SV 2009 simulation semantics.
xcelium> source /home/install/XCELIUM2209/tools/xcelium/files/xmsimrc
xcelium> source /home/install/XCELIUM2209/tools/methodology/UVM/CDNS-1.1d/additions/sv/files/tcl/uvm_sim.tcl
xcelium> database -open waves.shm -shm -default -event
Created default SHM database waves.shm
xcelium> probe -create -shm top -depth all
Created probe 1
xcelium> run
----------------------------------------------------------------
CDNS-UVM-1.1d (22.09-s003)
(C) 2007-2013 Mentor Graphics Corporation
(C) 2007-2013 Cadence Design Systems, Inc.
(C) 2006-2013 Synopsys, Inc.
(C) 2011-2013 Cypress Semiconductor Corp.
----------------------------------------------------------------

  ***********       IMPORTANT RELEASE NOTES         ************

  You are using a version of the UVM library that has been compiled
  with `UVM_NO_DEPRECATED undefined.
  See http://www.eda.org/svdb/view.php?id=3313 for more details.

  You are using a version of the UVM library that has been compiled
  with `UVM_OBJECT_MUST_HAVE_CONSTRUCTOR undefined.
  See http://www.eda.org/svdb/view.php?id=3770 for more details.

      (Specify +UVM_NO_RELNOTES to turn off this notice)

UVM_INFO @ 0: reporter [RNTST] Running test bridge_seq1_test...
xmsim: *W,PRPASZ: Packed array at "worklib.uvm_pkg::uvm_string_to_bits.uvm_string_to_bits" of 115200 bits exceeds limit of 4096 - not probed
 Use 'probe -create -packed 115200 worklib.uvm_pkg::uvm_string_to_bits.uvm_string_to_bits' or 'setenv SHM_PACKED_LIMIT 115200' to adjust limit.
xmsim: *W,PRPASZ: Packed array at "worklib.uvm_pkg::uvm_bits_to_string.str" of 115200 bits exceeds limit of 4096 - not probed
 Use 'probe -create -packed 115200 worklib.uvm_pkg::uvm_bits_to_string.str' or 'setenv SHM_PACKED_LIMIT 115200' to adjust limit.
xmsim: *W,PRPASZ: Packed array at "worklib.cdns_uvm_pkg::cdns_tcl_print_component.rval" of 115200 bits exceeds limit of 4096 - not probed
 Use 'probe -create -packed 115200 worklib.cdns_uvm_pkg::cdns_tcl_print_component.rval' or 'setenv SHM_PACKED_LIMIT 115200' to adjust limit.
xmsim: *W,PRPASZ: Packed array at "worklib.cdns_uvm_pkg::cdns_tcl_print_components.rval" of 115200 bits exceeds limit of 4096 - not probed
 Use 'probe -create -packed 115200 worklib.cdns_uvm_pkg::cdns_tcl_print_components.rval' or 'setenv SHM_PACKED_LIMIT 115200' to adjust limit.
xmsim: *W,PRPASZ: Packed array at "worklib.cdns_uvm_pkg::cdns_tcl_list_components.rval" of 115200 bits exceeds limit of 4096 - not probed
 Use 'probe -create -packed 115200 worklib.cdns_uvm_pkg::cdns_tcl_list_components.rval' or 'setenv SHM_PACKED_LIMIT 115200' to adjust limit.
          1
UVM_INFO @ 0: reporter [UVMTOP] UVM testbench topology:
--------------------------------------------------------------------
Name                         Type                        Size  Value
--------------------------------------------------------------------
uvm_test_top                 bridge_seq1_test            -     @3146
  bridge_envh                bridge_tb                   -     @3232
    ragnt_top                bridge_rd_agt_top           -     @3883
      agnth[0]               bridge_rd_agent             -     @4569
        drvh                 bridge_rd_driver            -     @4631
          rsp_port           uvm_analysis_port           -     @4781
          seq_item_port      uvm_seq_item_pull_port      -     @4730
        m_sequencer          bridge_rd_sequencer         -     @4760
          rsp_export         uvm_analysis_export         -     @4868
          seq_item_export    uvm_seq_item_pull_imp       -     @5412
          arbitration_queue  array                       0     -    
          lock_queue         array                       0     -    
          num_last_reqs      integral                    32    'd1  
          num_last_rsps      integral                    32    'd1  
        monh                 bridge_rd_monitor           -     @4602
          monitor_port       uvm_analysis_port           -     @4651
    sb1                      bridge_scoreboard           -     @3264
      fifo_rdh               uvm_tlm_analysis_fifo #(T)  -     @3201
        analysis_export      uvm_analysis_imp            -     @3544
        get_ap               uvm_analysis_port           -     @3494
        get_peek_export      uvm_get_peek_imp            -     @3396
        put_ap               uvm_analysis_port           -     @3445
        put_export           uvm_put_imp                 -     @3345
      fifo_wrh               uvm_tlm_analysis_fifo #(T)  -     @3574
        analysis_export      uvm_analysis_imp            -     @3822
        get_ap               uvm_analysis_port           -     @3772
        get_peek_export      uvm_get_peek_imp            -     @3674
        put_ap               uvm_analysis_port           -     @3723
        put_export           uvm_put_imp                 -     @3623
    v_sequencer              bridge_virtual_sequencer    -     @3914
      rsp_export             uvm_analysis_export         -     @3974
      seq_item_export        uvm_seq_item_pull_imp       -     @4524
      arbitration_queue      array                       0     -    
      lock_queue             array                       0     -    
      num_last_reqs          integral                    32    'd1  
      num_last_rsps          integral                    32    'd1  
    wagnt_top                bridge_wr_agt_top           -     @3801
      agnth[0]               bridge_wr_agent             -     @5509
        drvh                 bridge_wr_driver            -     @5570
          rsp_port           uvm_analysis_port           -     @5720
          seq_item_port      uvm_seq_item_pull_port      -     @5669
        m_sequencer          bridge_wr_sequencer         -     @5699
          rsp_export         uvm_analysis_export         -     @5807
          seq_item_export    uvm_seq_item_pull_imp       -     @6351
          arbitration_queue  array                       0     -    
          lock_queue         array                       0     -    
          num_last_reqs      integral                    32    'd1  
          num_last_rsps      integral                    32    'd1  
        monh                 bridge_wr_monitor           -     @5541
          monitor_port       uvm_analysis_port           -     @5590
--------------------------------------------------------------------

UVM_INFO virtual_seqs.sv(16) @ 0: uvm_test_top.bridge_envh.v_sequencer@@bridge_seqh [BODY] success in $cast of virtual sequencer
inside DEFAULT state                  10
                  10 ENTERED:&&
                  10 ENTERED:&&
                  30 ENTERED:&&
                  50 ENTERED:&&
                  70 ENTERED:&&
write monitor display
-----------------------------------------------------------------
Name          Type       Size  Value                             
-----------------------------------------------------------------
xtn           write_xtn  -     @6565                             
  Hsize       integral   3     'b10                              
  Htrans      integral   2     'b0                               
  Hwrite      integral   1     'b1                               
  Hwdata      integral   32    4106060955                        
  Haddr       integral   32    'b10001000000000000000001100101000
  Hburst      integral   3     'b0                               
  Hreadyin    integral   1     'b0                               
  Hreadyout   integral   1     'b0                               
  data_count  integral   32    'd0                               
  Hrdata      integral   32    'd0                               
-----------------------------------------------------------------
driver data
------------------------------------------------------------------------------------------------------------------
Name                           Type       Size  Value                                                             
------------------------------------------------------------------------------------------------------------------
req                            write_xtn  -     @6496                                                             
  begin_time                   time       64    30000                                                             
  depth                        int        32    'd2                                                               
  parent sequence (name)       string     10    seq1_wxtns                                                        
  parent sequence (full name)  string     66    uvm_test_top.bridge_envh.wagnt_top.agnth[0].m_sequencer.seq1_wxtns
  sequencer                    string     55    uvm_test_top.bridge_envh.wagnt_top.agnth[0].m_sequencer           
  Hsize                        integral   3     'b10                                                              
  Htrans                       integral   2     'b10                                                              
  Hwrite                       integral   1     'b1                                                               
  Hwdata                       integral   32    4106060955                                                        
  Haddr                        integral   32    'b10001000000000000000001100101000                                
  Hburst                       integral   3     'b110                                                             
  Hreadyin                     integral   1     'b0                                                               
  Hreadyout                    integral   1     'b0                                                               
  data_count                   integral   32    'd1                                                               
  Hrdata                       integral   32    'd0                                                               
------------------------------------------------------------------------------------------------------------------
Width = 32, size more than 32 bits
                  90 ENTERED:&&
                  90 ENTERED:&&
write monitor display
-----------------------------------------------------------------
Name          Type       Size  Value                             
-----------------------------------------------------------------
xtn           write_xtn  -     @6600                             
  Hsize       integral   3     'b10                              
  Htrans      integral   2     'b10                              
  Hwrite      integral   1     'b1                               
  Hwdata      integral   32    4106060955                        
  Haddr       integral   32    'b10001000000000000000001100101000
  Hburst      integral   3     'b0                               
  Hreadyin    integral   1     'b0                               
  Hreadyout   integral   1     'b0                               
  data_count  integral   32    'd0                               
  Hrdata      integral   32    'd0                               
-----------------------------------------------------------------
                 110 ENTERED:&&
driver data
------------------------------------------------------------------------------------------------------------------
Name                           Type       Size  Value                                                             
------------------------------------------------------------------------------------------------------------------
req                            write_xtn  -     @6634                                                             
  begin_time                   time       64    70000                                                             
  depth                        int        32    'd2                                                               
  parent sequence (name)       string     10    seq1_wxtns                                                        
  parent sequence (full name)  string     66    uvm_test_top.bridge_envh.wagnt_top.agnth[0].m_sequencer.seq1_wxtns
  sequencer                    string     55    uvm_test_top.bridge_envh.wagnt_top.agnth[0].m_sequencer           
  Hsize                        integral   3     'b10                                                              
  Htrans                       integral   2     'b10                                                              
  Hwrite                       integral   1     'b1                                                               
  Hwdata                       integral   32    'd1725015249                                                      
  Haddr                        integral   32    'b10000100000000000000001000101000                                
  Hburst                       integral   3     'b0                                                               
  Hreadyin                     integral   1     'b0                                                               
  Hreadyout                    integral   1     'b0                                                               
  data_count                   integral   32    'd1                                                               
  Hrdata                       integral   32    'd0                                                               
------------------------------------------------------------------------------------------------------------------
Width = 32, size 32 bits
read_monitor display
------------------------------------
Name      Type      Size  Value     
------------------------------------
xtn       read_xtn  -     @6549     
  Pwdata  integral  32    'hf4bd849b
  Prdata  integral  32    'h0       
  Paddr   integral  32    2281702184
  Pwrite  integral  1     'd0       
------------------------------------
write monitor display
-----------------------------------------------------------------
Name          Type       Size  Value                             
-----------------------------------------------------------------
xtn           write_xtn  -     @6444                             
  Hsize       integral   3     'b10                              
  Htrans      integral   2     'b10                              
  Hwrite      integral   1     'b1                               
  Hwdata      integral   32    'd1725015249                      
  Haddr       integral   32    'b10001000000000000000001100101000
  Hburst      integral   3     'b0                               
  Hreadyin    integral   1     'b0                               
  Hreadyout   integral   1     'b0                               
  data_count  integral   32    'd0                               
  Hrdata      integral   32    'd0                               
-----------------------------------------------------------------
UVM_INFO scoreboard.sv(42) @ 130000: uvm_test_top.bridge_envh.sb1 [SB] WRITE data matched : Hwdata=4106060955 Pwdata=4106060955
                 130 ENTERED:&&
                 130 ENTERED:&&
read_monitor display
------------------------------------
Name      Type      Size  Value     
------------------------------------
xtn       read_xtn  -     @6436     
  Pwdata  integral  32    'hf4bd849b
  Prdata  integral  32    'h0       
  Paddr   integral  32    2281702184
  Pwrite  integral  1     'd0       
------------------------------------
write monitor display
-----------------------------------------------------------------
Name          Type       Size  Value                             
-----------------------------------------------------------------
xtn           write_xtn  -     @6455                             
  Hsize       integral   3     'b10                              
  Htrans      integral   2     'b10                              
  Hwrite      integral   1     'b1                               
  Hwdata      integral   32    'd1725015249                      
  Haddr       integral   32    'b10000100000000000000001000101000
  Hburst      integral   3     'b0                               
  Hreadyin    integral   1     'b0                               
  Hreadyout   integral   1     'b0                               
  data_count  integral   32    'd0                               
  Hrdata      integral   32    'd0                               
-----------------------------------------------------------------
UVM_INFO scoreboard.sv(42) @ 130000: uvm_test_top.bridge_envh.sb1 [SB] WRITE data matched : Hwdata=4106060955 Pwdata=4106060955
                 150 ENTERED:&&
driver data
------------------------------------------------------------------------------------------------------------------
Name                           Type       Size  Value                                                             
------------------------------------------------------------------------------------------------------------------
req                            write_xtn  -     @6625                                                             
  begin_time                   time       64    110000                                                            
  depth                        int        32    'd2                                                               
  parent sequence (name)       string     10    seq1_wxtns                                                        
  parent sequence (full name)  string     66    uvm_test_top.bridge_envh.wagnt_top.agnth[0].m_sequencer.seq1_wxtns
  sequencer                    string     55    uvm_test_top.bridge_envh.wagnt_top.agnth[0].m_sequencer           
  Hsize                        integral   3     'b10                                                              
  Htrans                       integral   2     'b10                                                              
  Hwrite                       integral   1     'b1                                                               
  Hwdata                       integral   32    2982793204                                                        
  Haddr                        integral   32    'b10000100000000000000000111000100                                
  Hburst                       integral   3     'b111                                                             
  Hreadyin                     integral   1     'b0                                                               
  Hreadyout                    integral   1     'b0                                                               
  data_count                   integral   32    'd1                                                               
  Hrdata                       integral   32    'd0                                                               
------------------------------------------------------------------------------------------------------------------
Width = 32, size 32 bits
read_monitor display
------------------------------------
Name      Type      Size  Value     
------------------------------------
xtn       read_xtn  -     @6492     
  Pwdata  integral  32    'h66d1a4d1
  Prdata  integral  32    'h0       
  Paddr   integral  32    2214593064
  Pwrite  integral  1     'd0       
------------------------------------
write monitor display
-----------------------------------------------------------------
Name          Type       Size  Value                             
-----------------------------------------------------------------
xtn           write_xtn  -     @6657                             
  Hsize       integral   3     'b10                              
  Htrans      integral   2     'b10                              
  Hwrite      integral   1     'b1                               
  Hwdata      integral   32    2982793204                        
  Haddr       integral   32    'b10000100000000000000001000101000
  Hburst      integral   3     'b0                               
  Hreadyin    integral   1     'b0                               
  Hreadyout   integral   1     'b0                               
  data_count  integral   32    'd0                               
  Hrdata      integral   32    'd0                               
-----------------------------------------------------------------
UVM_INFO scoreboard.sv(42) @ 170000: uvm_test_top.bridge_envh.sb1 [SB] WRITE data matched : Hwdata=1725015249 Pwdata=1725015249
                 170 ENTERED:&&
                 170 ENTERED:&&
read_monitor display
------------------------------------
Name      Type      Size  Value     
------------------------------------
xtn       read_xtn  -     @6558     
  Pwdata  integral  32    'h66d1a4d1
  Prdata  integral  32    'h0       
  Paddr   integral  32    2214593064
  Pwrite  integral  1     'd0       
------------------------------------
write monitor display
-----------------------------------------------------------------
Name          Type       Size  Value                             
-----------------------------------------------------------------
xtn           write_xtn  -     @6536                             
  Hsize       integral   3     'b10                              
  Htrans      integral   2     'b10                              
  Hwrite      integral   1     'b1                               
  Hwdata      integral   32    2982793204                        
  Haddr       integral   32    'b10000100000000000000000111000100
  Hburst      integral   3     'b0                               
  Hreadyin    integral   1     'b0                               
  Hreadyout   integral   1     'b0                               
  data_count  integral   32    'd0                               
  Hrdata      integral   32    'd0                               
-----------------------------------------------------------------
UVM_INFO scoreboard.sv(42) @ 170000: uvm_test_top.bridge_envh.sb1 [SB] WRITE data matched : Hwdata=1725015249 Pwdata=1725015249
                 190 ENTERED:&&
driver data
------------------------------------------------------------------------------------------------------------------
Name                           Type       Size  Value                                                             
------------------------------------------------------------------------------------------------------------------
req                            write_xtn  -     @6472                                                             
  begin_time                   time       64    150000                                                            
  depth                        int        32    'd2                                                               
  parent sequence (name)       string     10    seq1_wxtns                                                        
  parent sequence (full name)  string     66    uvm_test_top.bridge_envh.wagnt_top.agnth[0].m_sequencer.seq1_wxtns
  sequencer                    string     55    uvm_test_top.bridge_envh.wagnt_top.agnth[0].m_sequencer           
  Hsize                        integral   3     'b10                                                              
  Htrans                       integral   2     'b10                                                              
  Hwrite                       integral   1     'b1                                                               
  Hwdata                       integral   32    'd1859525453                                                      
  Haddr                        integral   32    'b10001100000000000000001001001100                                
  Hburst                       integral   3     'b111                                                             
  Hreadyin                     integral   1     'b0                                                               
  Hreadyout                    integral   1     'b0                                                               
  data_count                   integral   32    'd1                                                               
  Hrdata                       integral   32    'd0                                                               
------------------------------------------------------------------------------------------------------------------
Width = 32, size 32 bits
read_monitor display
------------------------------------
Name      Type      Size  Value     
------------------------------------
xtn       read_xtn  -     @6549     
  Pwdata  integral  32    'hb1c9cff4
  Prdata  integral  32    'h0       
  Paddr   integral  32    2214592964
  Pwrite  integral  1     'd0       
------------------------------------
write monitor display
-----------------------------------------------------------------
Name          Type       Size  Value                             
-----------------------------------------------------------------
xtn           write_xtn  -     @6560                             
  Hsize       integral   3     'b10                              
  Htrans      integral   2     'b10                              
  Hwrite      integral   1     'b1                               
  Hwdata      integral   32    'd1859525453                      
  Haddr       integral   32    'b10000100000000000000000111000100
  Hburst      integral   3     'b0                               
  Hreadyin    integral   1     'b0                               
  Hreadyout   integral   1     'b0                               
  data_count  integral   32    'd0                               
  Hrdata      integral   32    'd0                               
-----------------------------------------------------------------
UVM_INFO scoreboard.sv(42) @ 210000: uvm_test_top.bridge_envh.sb1 [SB] WRITE data matched : Hwdata=2982793204 Pwdata=2982793204
                 210 ENTERED:&&
                 210 ENTERED:&&
read_monitor display
------------------------------------
Name      Type      Size  Value     
------------------------------------
xtn       read_xtn  -     @6452     
  Pwdata  integral  32    'hb1c9cff4
  Prdata  integral  32    'h0       
  Paddr   integral  32    2214592964
  Pwrite  integral  1     'd0       
------------------------------------
write monitor display
-----------------------------------------------------------------
Name          Type       Size  Value                             
-----------------------------------------------------------------
xtn           write_xtn  -     @6622                             
  Hsize       integral   3     'b10                              
  Htrans      integral   2     'b10                              
  Hwrite      integral   1     'b1                               
  Hwdata      integral   32    'd1859525453                      
  Haddr       integral   32    'b10001100000000000000001001001100
  Hburst      integral   3     'b0                               
  Hreadyin    integral   1     'b0                               
  Hreadyout   integral   1     'b0                               
  data_count  integral   32    'd0                               
  Hrdata      integral   32    'd0                               
-----------------------------------------------------------------
UVM_INFO scoreboard.sv(42) @ 210000: uvm_test_top.bridge_envh.sb1 [SB] WRITE data matched : Hwdata=2982793204 Pwdata=2982793204
                 230 ENTERED:&&
driver data
------------------------------------------------------------------------------------------------------------------
Name                           Type       Size  Value                                                             
------------------------------------------------------------------------------------------------------------------
req                            write_xtn  -     @6623                                                             
  begin_time                   time       64    190000                                                            
  depth                        int        32    'd2                                                               
  parent sequence (name)       string     10    seq1_wxtns                                                        
  parent sequence (full name)  string     66    uvm_test_top.bridge_envh.wagnt_top.agnth[0].m_sequencer.seq1_wxtns
  sequencer                    string     55    uvm_test_top.bridge_envh.wagnt_top.agnth[0].m_sequencer           
  Hsize                        integral   3     'b10                                                              
  Htrans                       integral   2     'b10                                                              
  Hwrite                       integral   1     'b1                                                               
  Hwdata                       integral   32    2623985907                                                        
  Haddr                        integral   32    'b10001000000000000000000001110000                                
  Hburst                       integral   3     'b101                                                             
  Hreadyin                     integral   1     'b0                                                               
  Hreadyout                    integral   1     'b0                                                               
  data_count                   integral   32    'd1                                                               
  Hrdata                       integral   32    'd0                                                               
------------------------------------------------------------------------------------------------------------------
Width = 32, size 32 bits
read_monitor display
------------------------------------
Name      Type      Size  Value     
------------------------------------
xtn       read_xtn  -     @6492     
  Pwdata  integral  32    'h6ed61b4d
  Prdata  integral  32    'h0       
  Paddr   integral  32    2348810828
  Pwrite  integral  1     'd0       
------------------------------------
write monitor display
-----------------------------------------------------------------
Name          Type       Size  Value                             
-----------------------------------------------------------------
xtn           write_xtn  -     @6447                             
  Hsize       integral   3     'b10                              
  Htrans      integral   2     'b10                              
  Hwrite      integral   1     'b1                               
  Hwdata      integral   32    2623985907                        
  Haddr       integral   32    'b10001100000000000000001001001100
  Hburst      integral   3     'b0                               
  Hreadyin    integral   1     'b0                               
  Hreadyout   integral   1     'b0                               
  data_count  integral   32    'd0                               
  Hrdata      integral   32    'd0                               
-----------------------------------------------------------------
UVM_INFO scoreboard.sv(42) @ 250000: uvm_test_top.bridge_envh.sb1 [SB] WRITE data matched : Hwdata=1859525453 Pwdata=1859525453
                 250 ENTERED:&&
                 250 ENTERED:&&
read_monitor display
------------------------------------
Name      Type      Size  Value     
------------------------------------
xtn       read_xtn  -     @6653     
  Pwdata  integral  32    'h6ed61b4d
  Prdata  integral  32    'h0       
  Paddr   integral  32    2348810828
  Pwrite  integral  1     'd0       
------------------------------------
write monitor display
-----------------------------------------------------------------
Name          Type       Size  Value                             
-----------------------------------------------------------------
xtn           write_xtn  -     @6611                             
  Hsize       integral   3     'b10                              
  Htrans      integral   2     'b10                              
  Hwrite      integral   1     'b1                               
  Hwdata      integral   32    2623985907                        
  Haddr       integral   32    'b10001000000000000000000001110000
  Hburst      integral   3     'b0                               
  Hreadyin    integral   1     'b0                               
  Hreadyout   integral   1     'b0                               
  data_count  integral   32    'd0                               
  Hrdata      integral   32    'd0                               
-----------------------------------------------------------------
UVM_INFO scoreboard.sv(42) @ 250000: uvm_test_top.bridge_envh.sb1 [SB] WRITE data matched : Hwdata=1859525453 Pwdata=1859525453
                 270 ENTERED:&&
driver data
------------------------------------------------------------------------------------------------------------------
Name                           Type       Size  Value                                                             
------------------------------------------------------------------------------------------------------------------
req                            write_xtn  -     @6642                                                             
  begin_time                   time       64    230000                                                            
  depth                        int        32    'd2                                                               
  parent sequence (name)       string     10    seq1_wxtns                                                        
  parent sequence (full name)  string     66    uvm_test_top.bridge_envh.wagnt_top.agnth[0].m_sequencer.seq1_wxtns
  sequencer                    string     55    uvm_test_top.bridge_envh.wagnt_top.agnth[0].m_sequencer           
  Hsize                        integral   3     'b10                                                              
  Htrans                       integral   2     'b10                                                              
  Hwrite                       integral   1     'b1                                                               
  Hwdata                       integral   32    'd1033594038                                                      
  Haddr                        integral   32    'b10000100000000000000000000111000                                
  Hburst                       integral   3     'b1                                                               
  Hreadyin                     integral   1     'b0                                                               
  Hreadyout                    integral   1     'b0                                                               
  data_count                   integral   32    'd1                                                               
  Hrdata                       integral   32    'd0                                                               
------------------------------------------------------------------------------------------------------------------
Width = 32, size 32 bits
read_monitor display
------------------------------------
Name      Type      Size  Value     
------------------------------------
xtn       read_xtn  -     @6549     
  Pwdata  integral  32    'h9c66d8f3
  Prdata  integral  32    'h0       
  Paddr   integral  32    2281701488
  Pwrite  integral  1     'd0       
------------------------------------
write monitor display
-----------------------------------------------------------------
Name          Type       Size  Value                             
-----------------------------------------------------------------
xtn           write_xtn  -     @6655                             
  Hsize       integral   3     'b10                              
  Htrans      integral   2     'b10                              
  Hwrite      integral   1     'b1                               
  Hwdata      integral   32    'd1033594038                      
  Haddr       integral   32    'b10001000000000000000000001110000
  Hburst      integral   3     'b0                               
  Hreadyin    integral   1     'b0                               
  Hreadyout   integral   1     'b0                               
  data_count  integral   32    'd0                               
  Hrdata      integral   32    'd0                               
-----------------------------------------------------------------
UVM_INFO scoreboard.sv(42) @ 290000: uvm_test_top.bridge_envh.sb1 [SB] WRITE data matched : Hwdata=2623985907 Pwdata=2623985907
                 290 ENTERED:&&
                 290 ENTERED:&&
read_monitor display
------------------------------------
Name      Type      Size  Value     
------------------------------------
xtn       read_xtn  -     @6644     
  Pwdata  integral  32    'h9c66d8f3
  Prdata  integral  32    'h0       
  Paddr   integral  32    2281701488
  Pwrite  integral  1     'd0       
------------------------------------
write monitor display
-----------------------------------------------------------------
Name          Type       Size  Value                             
-----------------------------------------------------------------
xtn           write_xtn  -     @6647                             
  Hsize       integral   3     'b10                              
  Htrans      integral   2     'b10                              
  Hwrite      integral   1     'b1                               
  Hwdata      integral   32    'd1033594038                      
  Haddr       integral   32    'b10000100000000000000000000111000
  Hburst      integral   3     'b0                               
  Hreadyin    integral   1     'b0                               
  Hreadyout   integral   1     'b0                               
  data_count  integral   32    'd0                               
  Hrdata      integral   32    'd0                               
-----------------------------------------------------------------
UVM_INFO scoreboard.sv(42) @ 290000: uvm_test_top.bridge_envh.sb1 [SB] WRITE data matched : Hwdata=2623985907 Pwdata=2623985907
                 310 ENTERED:&&
driver data
------------------------------------------------------------------------------------------------------------------
Name                           Type       Size  Value                                                             
------------------------------------------------------------------------------------------------------------------
req                            write_xtn  -     @6659                                                             
  begin_time                   time       64    270000                                                            
  depth                        int        32    'd2                                                               
  parent sequence (name)       string     10    seq1_wxtns                                                        
  parent sequence (full name)  string     66    uvm_test_top.bridge_envh.wagnt_top.agnth[0].m_sequencer.seq1_wxtns
  sequencer                    string     55    uvm_test_top.bridge_envh.wagnt_top.agnth[0].m_sequencer           
  Hsize                        integral   3     'b10                                                              
  Htrans                       integral   2     'b10                                                              
  Hwrite                       integral   1     'b1                                                               
  Hwdata                       integral   32    3082025832                                                        
  Haddr                        integral   32    'b10000000000000000000001110011100                                
  Hburst                       integral   3     'b10                                                              
  Hreadyin                     integral   1     'b0                                                               
  Hreadyout                    integral   1     'b0                                                               
  data_count                   integral   32    'd1                                                               
  Hrdata                       integral   32    'd0                                                               
------------------------------------------------------------------------------------------------------------------
Width = 32, size 32 bits
read_monitor display
------------------------------------
Name      Type      Size  Value     
------------------------------------
xtn       read_xtn  -     @6492     
  Pwdata  integral  32    'h3d9b64b6
  Prdata  integral  32    'h0       
  Paddr   integral  32    2214592568
  Pwrite  integral  1     'd0       
------------------------------------
write monitor display
-----------------------------------------------------------------
Name          Type       Size  Value                             
-----------------------------------------------------------------
xtn           write_xtn  -     @6618                             
  Hsize       integral   3     'b10                              
  Htrans      integral   2     'b10                              
  Hwrite      integral   1     'b1                               
  Hwdata      integral   32    3082025832                        
  Haddr       integral   32    'b10000100000000000000000000111000
  Hburst      integral   3     'b0                               
  Hreadyin    integral   1     'b0                               
  Hreadyout   integral   1     'b0                               
  data_count  integral   32    'd0                               
  Hrdata      integral   32    'd0                               
-----------------------------------------------------------------
UVM_INFO scoreboard.sv(42) @ 330000: uvm_test_top.bridge_envh.sb1 [SB] WRITE data matched : Hwdata=1033594038 Pwdata=1033594038
                 330 ENTERED:&&
                 330 ENTERED:&&
read_monitor display
------------------------------------
Name      Type      Size  Value     
------------------------------------
xtn       read_xtn  -     @6661     
  Pwdata  integral  32    'h3d9b64b6
  Prdata  integral  32    'h0       
  Paddr   integral  32    2214592568
  Pwrite  integral  1     'd0       
------------------------------------
write monitor display
-----------------------------------------------------------------
Name          Type       Size  Value                             
-----------------------------------------------------------------
xtn           write_xtn  -     @6664                             
  Hsize       integral   3     'b10                              
  Htrans      integral   2     'b10                              
  Hwrite      integral   1     'b1                               
  Hwdata      integral   32    3082025832                        
  Haddr       integral   32    'b10000000000000000000001110011100
  Hburst      integral   3     'b0                               
  Hreadyin    integral   1     'b0                               
  Hreadyout   integral   1     'b0                               
  data_count  integral   32    'd0                               
  Hrdata      integral   32    'd0                               
-----------------------------------------------------------------
UVM_INFO scoreboard.sv(42) @ 330000: uvm_test_top.bridge_envh.sb1 [SB] WRITE data matched : Hwdata=1033594038 Pwdata=1033594038
                 350 ENTERED:&&
driver data
------------------------------------------------------------------------------------------------------------------
Name                           Type       Size  Value                                                             
------------------------------------------------------------------------------------------------------------------
req                            write_xtn  -     @6600                                                             
  begin_time                   time       64    310000                                                            
  depth                        int        32    'd2                                                               
  parent sequence (name)       string     10    seq1_wxtns                                                        
  parent sequence (full name)  string     66    uvm_test_top.bridge_envh.wagnt_top.agnth[0].m_sequencer.seq1_wxtns
  sequencer                    string     55    uvm_test_top.bridge_envh.wagnt_top.agnth[0].m_sequencer           
  Hsize                        integral   3     'b10                                                              
  Htrans                       integral   2     'b10                                                              
  Hwrite                       integral   1     'b1                                                               
  Hwdata                       integral   32    2723218535                                                        
  Haddr                        integral   32    'b10000000000000000000001000100100                                
  Hburst                       integral   3     'b0                                                               
  Hreadyin                     integral   1     'b0                                                               
  Hreadyout                    integral   1     'b0                                                               
  data_count                   integral   32    'd1                                                               
  Hrdata                       integral   32    'd0                                                               
------------------------------------------------------------------------------------------------------------------
Width = 32, size 32 bits
read_monitor display
------------------------------------
Name      Type      Size  Value     
------------------------------------
xtn       read_xtn  -     @6549     
  Pwdata  integral  32    'hb7b3fb68
  Prdata  integral  32    'h0       
  Paddr   integral  32    2147484572
  Pwrite  integral  1     'd0       
------------------------------------
write monitor display
-----------------------------------------------------------------
Name          Type       Size  Value                             
-----------------------------------------------------------------
xtn           write_xtn  -     @6593                             
  Hsize       integral   3     'b10                              
  Htrans      integral   2     'b10                              
  Hwrite      integral   1     'b1                               
  Hwdata      integral   32    2723218535                        
  Haddr       integral   32    'b10000000000000000000001110011100
  Hburst      integral   3     'b0                               
  Hreadyin    integral   1     'b0                               
  Hreadyout   integral   1     'b0                               
  data_count  integral   32    'd0                               
  Hrdata      integral   32    'd0                               
-----------------------------------------------------------------
UVM_INFO scoreboard.sv(42) @ 370000: uvm_test_top.bridge_envh.sb1 [SB] WRITE data matched : Hwdata=3082025832 Pwdata=3082025832
                 370 ENTERED:&&
                 370 ENTERED:&&
read_monitor display
------------------------------------
Name      Type      Size  Value     
------------------------------------
xtn       read_xtn  -     @6596     
  Pwdata  integral  32    'hb7b3fb68
  Prdata  integral  32    'h0       
  Paddr   integral  32    2147484572
  Pwrite  integral  1     'd0       
------------------------------------
write monitor display
-----------------------------------------------------------------
Name          Type       Size  Value                             
-----------------------------------------------------------------
xtn           write_xtn  -     @6597                             
  Hsize       integral   3     'b10                              
  Htrans      integral   2     'b10                              
  Hwrite      integral   1     'b1                               
  Hwdata      integral   32    2723218535                        
  Haddr       integral   32    'b10000000000000000000001000100100
  Hburst      integral   3     'b0                               
  Hreadyin    integral   1     'b0                               
  Hreadyout   integral   1     'b0                               
  data_count  integral   32    'd0                               
  Hrdata      integral   32    'd0                               
-----------------------------------------------------------------
UVM_INFO scoreboard.sv(42) @ 370000: uvm_test_top.bridge_envh.sb1 [SB] WRITE data matched : Hwdata=3082025832 Pwdata=3082025832
                 390 ENTERED:&&
driver data
------------------------------------------------------------------------------------------------------------------
Name                           Type       Size  Value                                                             
------------------------------------------------------------------------------------------------------------------
req                            write_xtn  -     @6455                                                             
  begin_time                   time       64    350000                                                            
  depth                        int        32    'd2                                                               
  parent sequence (name)       string     10    seq1_wxtns                                                        
  parent sequence (full name)  string     66    uvm_test_top.bridge_envh.wagnt_top.agnth[0].m_sequencer.seq1_wxtns
  sequencer                    string     55    uvm_test_top.bridge_envh.wagnt_top.agnth[0].m_sequencer           
  Hsize                        integral   3     'b10                                                              
  Htrans                       integral   2     'b10                                                              
  Hwrite                       integral   1     'b1                                                               
  Hwdata                       integral   32    'd1760654374                                                      
  Haddr                        integral   32    'b10001100000000000000001111000000                                
  Hburst                       integral   3     'b100                                                             
  Hreadyin                     integral   1     'b0                                                               
  Hreadyout                    integral   1     'b0                                                               
  data_count                   integral   32    'd1                                                               
  Hrdata                       integral   32    'd0                                                               
------------------------------------------------------------------------------------------------------------------
Width = 32, size 32 bits
read_monitor display
------------------------------------
Name      Type      Size  Value     
------------------------------------
xtn       read_xtn  -     @6492     
  Pwdata  integral  32    'ha2510467
  Prdata  integral  32    'h0       
  Paddr   integral  32    2147484196
  Pwrite  integral  1     'd0       
------------------------------------
write monitor display
-----------------------------------------------------------------
Name          Type       Size  Value                             
-----------------------------------------------------------------
xtn           write_xtn  -     @6465                             
  Hsize       integral   3     'b10                              
  Htrans      integral   2     'b10                              
  Hwrite      integral   1     'b1                               
  Hwdata      integral   32    'd1760654374                      
  Haddr       integral   32    'b10000000000000000000001000100100
  Hburst      integral   3     'b0                               
  Hreadyin    integral   1     'b0                               
  Hreadyout   integral   1     'b0                               
  data_count  integral   32    'd0                               
  Hrdata      integral   32    'd0                               
-----------------------------------------------------------------
UVM_INFO scoreboard.sv(42) @ 410000: uvm_test_top.bridge_envh.sb1 [SB] WRITE data matched : Hwdata=2723218535 Pwdata=2723218535
                 410 ENTERED:&&
                 410 ENTERED:&&
read_monitor display
------------------------------------
Name      Type      Size  Value     
------------------------------------
xtn       read_xtn  -     @6609     
  Pwdata  integral  32    'ha2510467
  Prdata  integral  32    'h0       
  Paddr   integral  32    2147484196
  Pwrite  integral  1     'd0       
------------------------------------
write monitor display
-----------------------------------------------------------------
Name          Type       Size  Value                             
-----------------------------------------------------------------
xtn           write_xtn  -     @6460                             
  Hsize       integral   3     'b10                              
  Htrans      integral   2     'b10                              
  Hwrite      integral   1     'b1                               
  Hwdata      integral   32    'd1760654374                      
  Haddr       integral   32    'b10001100000000000000001111000000
  Hburst      integral   3     'b0                               
  Hreadyin    integral   1     'b0                               
  Hreadyout   integral   1     'b0                               
  data_count  integral   32    'd0                               
  Hrdata      integral   32    'd0                               
-----------------------------------------------------------------
UVM_INFO scoreboard.sv(42) @ 410000: uvm_test_top.bridge_envh.sb1 [SB] WRITE data matched : Hwdata=2723218535 Pwdata=2723218535
                 430 ENTERED:&&
driver data
------------------------------------------------------------------------------------------------------------------
Name                           Type       Size  Value                                                             
------------------------------------------------------------------------------------------------------------------
req                            write_xtn  -     @6536                                                             
  begin_time                   time       64    390000                                                            
  depth                        int        32    'd2                                                               
  parent sequence (name)       string     10    seq1_wxtns                                                        
  parent sequence (full name)  string     66    uvm_test_top.bridge_envh.wagnt_top.agnth[0].m_sequencer.seq1_wxtns
  sequencer                    string     55    uvm_test_top.bridge_envh.wagnt_top.agnth[0].m_sequencer           
  Hsize                        integral   3     'b10                                                              
  Htrans                       integral   2     'b10                                                              
  Hwrite                       integral   1     'b1                                                               
  Hwdata                       integral   32    'd908529574                                                       
  Haddr                        integral   32    'b10000000000000000000001101011100                                
  Hburst                       integral   3     'b10                                                              
  Hreadyin                     integral   1     'b0                                                               
  Hreadyout                    integral   1     'b0                                                               
  data_count                   integral   32    'd1                                                               
  Hrdata                       integral   32    'd0                                                               
------------------------------------------------------------------------------------------------------------------
Width = 32, size 32 bits
read_monitor display
------------------------------------
Name      Type      Size  Value     
------------------------------------
xtn       read_xtn  -     @6549     
  Pwdata  integral  32    'h68f17426
  Prdata  integral  32    'h0       
  Paddr   integral  32    2348811200
  Pwrite  integral  1     'd0       
------------------------------------
write monitor display
-----------------------------------------------------------------
Name          Type       Size  Value                             
-----------------------------------------------------------------
xtn           write_xtn  -     @6489                             
  Hsize       integral   3     'b10                              
  Htrans      integral   2     'b10                              
  Hwrite      integral   1     'b1                               
  Hwdata      integral   32    'd908529574                       
  Haddr       integral   32    'b10001100000000000000001111000000
  Hburst      integral   3     'b0                               
  Hreadyin    integral   1     'b0                               
  Hreadyout   integral   1     'b0                               
  data_count  integral   32    'd0                               
  Hrdata      integral   32    'd0                               
-----------------------------------------------------------------
UVM_INFO scoreboard.sv(42) @ 450000: uvm_test_top.bridge_envh.sb1 [SB] WRITE data matched : Hwdata=1760654374 Pwdata=1760654374
                 450 ENTERED:&&
                 450 ENTERED:&&
read_monitor display
------------------------------------
Name      Type      Size  Value     
------------------------------------
xtn       read_xtn  -     @6543     
  Pwdata  integral  32    'h68f17426
  Prdata  integral  32    'h0       
  Paddr   integral  32    2348811200
  Pwrite  integral  1     'd0       
------------------------------------
write monitor display
-----------------------------------------------------------------
Name          Type       Size  Value                             
-----------------------------------------------------------------
xtn           write_xtn  -     @6539                             
  Hsize       integral   3     'b10                              
  Htrans      integral   2     'b10                              
  Hwrite      integral   1     'b1                               
  Hwdata      integral   32    'd908529574                       
  Haddr       integral   32    'b10000000000000000000001101011100
  Hburst      integral   3     'b0                               
  Hreadyin    integral   1     'b0                               
  Hreadyout   integral   1     'b0                               
  data_count  integral   32    'd0                               
  Hrdata      integral   32    'd0                               
-----------------------------------------------------------------
UVM_INFO scoreboard.sv(42) @ 450000: uvm_test_top.bridge_envh.sb1 [SB] WRITE data matched : Hwdata=1760654374 Pwdata=1760654374
                 470 ENTERED:&&
driver data
------------------------------------------------------------------------------------------------------------------
Name                           Type       Size  Value                                                             
------------------------------------------------------------------------------------------------------------------
req                            write_xtn  -     @6622                                                             
  begin_time                   time       64    430000                                                            
  depth                        int        32    'd2                                                               
  parent sequence (name)       string     10    seq1_wxtns                                                        
  parent sequence (full name)  string     66    uvm_test_top.bridge_envh.wagnt_top.agnth[0].m_sequencer.seq1_wxtns
  sequencer                    string     55    uvm_test_top.bridge_envh.wagnt_top.agnth[0].m_sequencer           
  Hsize                        integral   3     'b10                                                              
  Htrans                       integral   2     'b10                                                              
  Hwrite                       integral   1     'b1                                                               
  Hwdata                       integral   32    3747615206                                                        
  Haddr                        integral   32    'b10000100000000000000001101100100                                
  Hburst                       integral   3     'b101                                                             
  Hreadyin                     integral   1     'b0                                                               
  Hreadyout                    integral   1     'b0                                                               
  data_count                   integral   32    'd1                                                               
  Hrdata                       integral   32    'd0                                                               
------------------------------------------------------------------------------------------------------------------
Width = 32, size 32 bits
read_monitor display
------------------------------------
Name      Type      Size  Value     
------------------------------------
xtn       read_xtn  -     @6492     
  Pwdata  integral  32    'h36270fa6
  Prdata  integral  32    'h0       
  Paddr   integral  32    2147484508
  Pwrite  integral  1     'd0       
------------------------------------
write monitor display
-----------------------------------------------------------------
Name          Type       Size  Value                             
-----------------------------------------------------------------
xtn           write_xtn  -     @6650                             
  Hsize       integral   3     'b10                              
  Htrans      integral   2     'b10                              
  Hwrite      integral   1     'b1                               
  Hwdata      integral   32    3747615206                        
  Haddr       integral   32    'b10000000000000000000001101011100
  Hburst      integral   3     'b0                               
  Hreadyin    integral   1     'b0                               
  Hreadyout   integral   1     'b0                               
  data_count  integral   32    'd0                               
  Hrdata      integral   32    'd0                               
-----------------------------------------------------------------
UVM_INFO scoreboard.sv(42) @ 490000: uvm_test_top.bridge_envh.sb1 [SB] WRITE data matched : Hwdata=908529574 Pwdata=908529574
                 490 ENTERED:&&
                 490 ENTERED:&&
read_monitor display
------------------------------------
Name      Type      Size  Value     
------------------------------------
xtn       read_xtn  -     @6614     
  Pwdata  integral  32    'h36270fa6
  Prdata  integral  32    'h0       
  Paddr   integral  32    2147484508
  Pwrite  integral  1     'd0       
------------------------------------
write monitor display
-----------------------------------------------------------------
Name          Type       Size  Value                             
-----------------------------------------------------------------
xtn           write_xtn  -     @6617                             
  Hsize       integral   3     'b10                              
  Htrans      integral   2     'b10                              
  Hwrite      integral   1     'b1                               
  Hwdata      integral   32    3747615206                        
  Haddr       integral   32    'b10000100000000000000001101100100
  Hburst      integral   3     'b0                               
  Hreadyin    integral   1     'b0                               
  Hreadyout   integral   1     'b0                               
  data_count  integral   32    'd0                               
  Hrdata      integral   32    'd0                               
-----------------------------------------------------------------
UVM_INFO scoreboard.sv(42) @ 490000: uvm_test_top.bridge_envh.sb1 [SB] WRITE data matched : Hwdata=908529574 Pwdata=908529574
                 510 ENTERED:&&
driver data
------------------------------------------------------------------------------------------------------------------
Name                           Type       Size  Value                                                             
------------------------------------------------------------------------------------------------------------------
req                            write_xtn  -     @6611                                                             
  begin_time                   time       64    470000                                                            
  depth                        int        32    'd2                                                               
  parent sequence (name)       string     10    seq1_wxtns                                                        
  parent sequence (full name)  string     66    uvm_test_top.bridge_envh.wagnt_top.agnth[0].m_sequencer.seq1_wxtns
  sequencer                    string     55    uvm_test_top.bridge_envh.wagnt_top.agnth[0].m_sequencer           
  Hsize                        integral   3     'b10                                                              
  Htrans                       integral   2     'b10                                                              
  Hwrite                       integral   1     'b1                                                               
  Hwdata                       integral   32    'd1635589909                                                      
  Haddr                        integral   32    'b10001000000000000000000101000100                                
  Hburst                       integral   3     'b101                                                             
  Hreadyin                     integral   1     'b0                                                               
  Hreadyout                    integral   1     'b0                                                               
  data_count                   integral   32    'd1                                                               
  Hrdata                       integral   32    'd0                                                               
------------------------------------------------------------------------------------------------------------------
Width = 32, size 32 bits
read_monitor display
------------------------------------
Name      Type      Size  Value     
------------------------------------
xtn       read_xtn  -     @6549     
  Pwdata  integral  32    'hdf6011e6
  Prdata  integral  32    'h0       
  Paddr   integral  32    2214593380
  Pwrite  integral  1     'd0       
------------------------------------
write monitor display
-----------------------------------------------------------------
Name          Type       Size  Value                             
-----------------------------------------------------------------
xtn           write_xtn  -     @6648                             
  Hsize       integral   3     'b10                              
  Htrans      integral   2     'b10                              
  Hwrite      integral   1     'b1                               
  Hwdata      integral   32    'd1635589909                      
  Haddr       integral   32    'b10000100000000000000001101100100
  Hburst      integral   3     'b0                               
  Hreadyin    integral   1     'b0                               
  Hreadyout   integral   1     'b0                               
  data_count  integral   32    'd0                               
  Hrdata      integral   32    'd0                               
-----------------------------------------------------------------
UVM_INFO scoreboard.sv(42) @ 530000: uvm_test_top.bridge_envh.sb1 [SB] WRITE data matched : Hwdata=3747615206 Pwdata=3747615206
                 530 ENTERED:&&
                 530 ENTERED:&&
read_monitor display
------------------------------------
Name      Type      Size  Value     
------------------------------------
xtn       read_xtn  -     @6436     
  Pwdata  integral  32    'hdf6011e6
  Prdata  integral  32    'h0       
  Paddr   integral  32    2214593380
  Pwrite  integral  1     'd0       
------------------------------------
write monitor display
-----------------------------------------------------------------
Name          Type       Size  Value                             
-----------------------------------------------------------------
xtn           write_xtn  -     @6457                             
  Hsize       integral   3     'b10                              
  Htrans      integral   2     'b10                              
  Hwrite      integral   1     'b1                               
  Hwdata      integral   32    'd1635589909                      
  Haddr       integral   32    'b10001000000000000000000101000100
  Hburst      integral   3     'b0                               
  Hreadyin    integral   1     'b0                               
  Hreadyout   integral   1     'b0                               
  data_count  integral   32    'd0                               
  Hrdata      integral   32    'd0                               
-----------------------------------------------------------------
UVM_INFO scoreboard.sv(42) @ 530000: uvm_test_top.bridge_envh.sb1 [SB] WRITE data matched : Hwdata=3747615206 Pwdata=3747615206
                 550 ENTERED:&&
driver data
------------------------------------------------------------------------------------------------------------------
Name                           Type       Size  Value                                                             
------------------------------------------------------------------------------------------------------------------
req                            write_xtn  -     @6647                                                             
  begin_time                   time       64    510000                                                            
  depth                        int        32    'd2                                                               
  parent sequence (name)       string     10    seq1_wxtns                                                        
  parent sequence (full name)  string     66    uvm_test_top.bridge_envh.wagnt_top.agnth[0].m_sequencer.seq1_wxtns
  sequencer                    string     55    uvm_test_top.bridge_envh.wagnt_top.agnth[0].m_sequencer           
  Hsize                        integral   3     'b10                                                              
  Htrans                       integral   2     'b10                                                              
  Hwrite                       integral   1     'b1                                                               
  Hwdata                       integral   32    3981358039                                                        
  Haddr                        integral   32    'b10001000000000000000000011011000                                
  Hburst                       integral   3     'b111                                                             
  Hreadyin                     integral   1     'b0                                                               
  Hreadyout                    integral   1     'b0                                                               
  data_count                   integral   32    'd1                                                               
  Hrdata                       integral   32    'd0                                                               
------------------------------------------------------------------------------------------------------------------
Width = 32, size 32 bits
read_monitor display
------------------------------------
Name      Type      Size  Value     
------------------------------------
xtn       read_xtn  -     @6492     
  Pwdata  integral  32    'h617d1f15
  Prdata  integral  32    'h0       
  Paddr   integral  32    2281701700
  Pwrite  integral  1     'd0       
------------------------------------
write monitor display
-----------------------------------------------------------------
Name          Type       Size  Value                             
-----------------------------------------------------------------
xtn           write_xtn  -     @6665                             
  Hsize       integral   3     'b10                              
  Htrans      integral   2     'b10                              
  Hwrite      integral   1     'b1                               
  Hwdata      integral   32    3981358039                        
  Haddr       integral   32    'b10001000000000000000000101000100
  Hburst      integral   3     'b0                               
  Hreadyin    integral   1     'b0                               
  Hreadyout   integral   1     'b0                               
  data_count  integral   32    'd0                               
  Hrdata      integral   32    'd0                               
-----------------------------------------------------------------
UVM_INFO scoreboard.sv(42) @ 570000: uvm_test_top.bridge_envh.sb1 [SB] WRITE data matched : Hwdata=1635589909 Pwdata=1635589909
                 570 ENTERED:&&
                 570 ENTERED:&&
read_monitor display
------------------------------------
Name      Type      Size  Value     
------------------------------------
xtn       read_xtn  -     @6558     
  Pwdata  integral  32    'h617d1f15
  Prdata  integral  32    'h0       
  Paddr   integral  32    2281701700
  Pwrite  integral  1     'd0       
------------------------------------
write monitor display
-----------------------------------------------------------------
Name          Type       Size  Value                             
-----------------------------------------------------------------
xtn           write_xtn  -     @6646                             
  Hsize       integral   3     'b10                              
  Htrans      integral   2     'b10                              
  Hwrite      integral   1     'b1                               
  Hwdata      integral   32    3981358039                        
  Haddr       integral   32    'b10001000000000000000000011011000
  Hburst      integral   3     'b0                               
  Hreadyin    integral   1     'b0                               
  Hreadyout   integral   1     'b0                               
  data_count  integral   32    'd0                               
  Hrdata      integral   32    'd0                               
-----------------------------------------------------------------
UVM_INFO scoreboard.sv(42) @ 570000: uvm_test_top.bridge_envh.sb1 [SB] WRITE data matched : Hwdata=1635589909 Pwdata=1635589909
                 590 ENTERED:&&
driver data
------------------------------------------------------------------------------------------------------------------
Name                           Type       Size  Value                                                             
------------------------------------------------------------------------------------------------------------------
req                            write_xtn  -     @6664                                                             
  begin_time                   time       64    550000                                                            
  depth                        int        32    'd2                                                               
  parent sequence (name)       string     10    seq1_wxtns                                                        
  parent sequence (full name)  string     66    uvm_test_top.bridge_envh.wagnt_top.agnth[0].m_sequencer.seq1_wxtns
  sequencer                    string     55    uvm_test_top.bridge_envh.wagnt_top.agnth[0].m_sequencer           
  Hsize                        integral   3     'b10                                                              
  Htrans                       integral   2     'b10                                                              
  Hwrite                       integral   1     'b1                                                               
  Hwdata                       integral   32    'd1402208624                                                      
  Haddr                        integral   32    'b10000000000000000000000001101000                                
  Hburst                       integral   3     'b11                                                              
  Hreadyin                     integral   1     'b0                                                               
  Hreadyout                    integral   1     'b0                                                               
  data_count                   integral   32    'd1                                                               
  Hrdata                       integral   32    'd0                                                               
------------------------------------------------------------------------------------------------------------------
Width = 32, size 32 bits
read_monitor display
------------------------------------
Name      Type      Size  Value     
------------------------------------
xtn       read_xtn  -     @6549     
  Pwdata  integral  32    'hed4eb3d7
  Prdata  integral  32    'h0       
  Paddr   integral  32    2281701592
  Pwrite  integral  1     'd0       
------------------------------------
write monitor display
-----------------------------------------------------------------
Name          Type       Size  Value                             
-----------------------------------------------------------------
xtn           write_xtn  -     @6598                             
  Hsize       integral   3     'b10                              
  Htrans      integral   2     'b10                              
  Hwrite      integral   1     'b1                               
  Hwdata      integral   32    'd1402208624                      
  Haddr       integral   32    'b10001000000000000000000011011000
  Hburst      integral   3     'b0                               
  Hreadyin    integral   1     'b0                               
  Hreadyout   integral   1     'b0                               
  data_count  integral   32    'd0                               
  Hrdata      integral   32    'd0                               
-----------------------------------------------------------------
UVM_INFO scoreboard.sv(42) @ 610000: uvm_test_top.bridge_envh.sb1 [SB] WRITE data matched : Hwdata=3981358039 Pwdata=3981358039
                 610 ENTERED:&&
                 610 ENTERED:&&
read_monitor display
------------------------------------
Name      Type      Size  Value     
------------------------------------
xtn       read_xtn  -     @6452     
  Pwdata  integral  32    'hed4eb3d7
  Prdata  integral  32    'h0       
  Paddr   integral  32    2281701592
  Pwrite  integral  1     'd0       
------------------------------------
write monitor display
-----------------------------------------------------------------
Name          Type       Size  Value                             
-----------------------------------------------------------------
xtn           write_xtn  -     @6663                             
  Hsize       integral   3     'b10                              
  Htrans      integral   2     'b10                              
  Hwrite      integral   1     'b1                               
  Hwdata      integral   32    'd1402208624                      
  Haddr       integral   32    'b10000000000000000000000001101000
  Hburst      integral   3     'b0                               
  Hreadyin    integral   1     'b0                               
  Hreadyout   integral   1     'b0                               
  data_count  integral   32    'd0                               
  Hrdata      integral   32    'd0                               
-----------------------------------------------------------------
UVM_INFO scoreboard.sv(42) @ 610000: uvm_test_top.bridge_envh.sb1 [SB] WRITE data matched : Hwdata=3981358039 Pwdata=3981358039
                 630 ENTERED:&&
driver data
------------------------------------------------------------------------------------------------------------------
Name                           Type       Size  Value                                                             
------------------------------------------------------------------------------------------------------------------
req                            write_xtn  -     @6597                                                             
  begin_time                   time       64    590000                                                            
  depth                        int        32    'd2                                                               
  parent sequence (name)       string     10    seq1_wxtns                                                        
  parent sequence (full name)  string     66    uvm_test_top.bridge_envh.wagnt_top.agnth[0].m_sequencer.seq1_wxtns
  sequencer                    string     55    uvm_test_top.bridge_envh.wagnt_top.agnth[0].m_sequencer           
  Hsize                        integral   3     'b10                                                              
  Htrans                       integral   2     'b10                                                              
  Hwrite                       integral   1     'b1                                                               
  Hwdata                       integral   32    'd710787414                                                       
  Haddr                        integral   32    'b10001100000000000000000110111000                                
  Hburst                       integral   3     'b100                                                             
  Hreadyin                     integral   1     'b0                                                               
  Hreadyout                    integral   1     'b0                                                               
  data_count                   integral   32    'd1                                                               
  Hrdata                       integral   32    'd0                                                               
------------------------------------------------------------------------------------------------------------------
Width = 32, size 32 bits
read_monitor display
------------------------------------
Name      Type      Size  Value     
------------------------------------
xtn       read_xtn  -     @6492     
  Pwdata  integral  32    'h53940170
  Prdata  integral  32    'h0       
  Paddr   integral  32    2147483752
  Pwrite  integral  1     'd0       
------------------------------------
write monitor display
-----------------------------------------------------------------
Name          Type       Size  Value                             
-----------------------------------------------------------------
xtn           write_xtn  -     @6604                             
  Hsize       integral   3     'b10                              
  Htrans      integral   2     'b10                              
  Hwrite      integral   1     'b1                               
  Hwdata      integral   32    'd710787414                       
  Haddr       integral   32    'b10000000000000000000000001101000
  Hburst      integral   3     'b0                               
  Hreadyin    integral   1     'b0                               
  Hreadyout   integral   1     'b0                               
  data_count  integral   32    'd0                               
  Hrdata      integral   32    'd0                               
-----------------------------------------------------------------
UVM_INFO scoreboard.sv(42) @ 650000: uvm_test_top.bridge_envh.sb1 [SB] WRITE data matched : Hwdata=1402208624 Pwdata=1402208624
                 650 ENTERED:&&
                 650 ENTERED:&&
read_monitor display
------------------------------------
Name      Type      Size  Value     
------------------------------------
xtn       read_xtn  -     @6653     
  Pwdata  integral  32    'h53940170
  Prdata  integral  32    'h0       
  Paddr   integral  32    2147483752
  Pwrite  integral  1     'd0       
------------------------------------
write monitor display
-----------------------------------------------------------------
Name          Type       Size  Value                             
-----------------------------------------------------------------
xtn           write_xtn  -     @6637                             
  Hsize       integral   3     'b10                              
  Htrans      integral   2     'b10                              
  Hwrite      integral   1     'b1                               
  Hwdata      integral   32    'd710787414                       
  Haddr       integral   32    'b10001100000000000000000110111000
  Hburst      integral   3     'b0                               
  Hreadyin    integral   1     'b0                               
  Hreadyout   integral   1     'b0                               
  data_count  integral   32    'd0                               
  Hrdata      integral   32    'd0                               
-----------------------------------------------------------------
UVM_INFO scoreboard.sv(42) @ 650000: uvm_test_top.bridge_envh.sb1 [SB] WRITE data matched : Hwdata=1402208624 Pwdata=1402208624
                 670 ENTERED:&&
driver data
------------------------------------------------------------------------------------------------------------------
Name                           Type       Size  Value                                                             
------------------------------------------------------------------------------------------------------------------
req                            write_xtn  -     @6460                                                             
  begin_time                   time       64    630000                                                            
  depth                        int        32    'd2                                                               
  parent sequence (name)       string     10    seq1_wxtns                                                        
  parent sequence (full name)  string     66    uvm_test_top.bridge_envh.wagnt_top.agnth[0].m_sequencer.seq1_wxtns
  sequencer                    string     55    uvm_test_top.bridge_envh.wagnt_top.agnth[0].m_sequencer           
  Hsize                        integral   3     'b10                                                              
  Htrans                       integral   2     'b10                                                              
  Hwrite                       integral   1     'b1                                                               
  Hwdata                       integral   32    3684383251                                                        
  Haddr                        integral   32    'b10000100000000000000001111100100                                
  Hburst                       integral   3     'b110                                                             
  Hreadyin                     integral   1     'b0                                                               
  Hreadyout                    integral   1     'b0                                                               
  data_count                   integral   32    'd1                                                               
  Hrdata                       integral   32    'd0                                                               
------------------------------------------------------------------------------------------------------------------
Width = 32, size 32 bits
read_monitor display
------------------------------------
Name      Type      Size  Value     
------------------------------------
xtn       read_xtn  -     @6549     
  Pwdata  integral  32    'h2a5dc156
  Prdata  integral  32    'h0       
  Paddr   integral  32    2348810680
  Pwrite  integral  1     'd0       
------------------------------------
write monitor display
-----------------------------------------------------------------
Name          Type       Size  Value                             
-----------------------------------------------------------------
xtn           write_xtn  -     @6542                             
  Hsize       integral   3     'b10                              
  Htrans      integral   2     'b10                              
  Hwrite      integral   1     'b1                               
  Hwdata      integral   32    3684383251                        
  Haddr       integral   32    'b10001100000000000000000110111000
  Hburst      integral   3     'b0                               
  Hreadyin    integral   1     'b0                               
  Hreadyout   integral   1     'b0                               
  data_count  integral   32    'd0                               
  Hrdata      integral   32    'd0                               
-----------------------------------------------------------------
UVM_INFO scoreboard.sv(42) @ 690000: uvm_test_top.bridge_envh.sb1 [SB] WRITE data matched : Hwdata=710787414 Pwdata=710787414
                 690 ENTERED:&&
                 690 ENTERED:&&
read_monitor display
------------------------------------
Name      Type      Size  Value     
------------------------------------
xtn       read_xtn  -     @6644     
  Pwdata  integral  32    'h2a5dc156
  Prdata  integral  32    'h0       
  Paddr   integral  32    2348810680
  Pwrite  integral  1     'd0       
------------------------------------
write monitor display
-----------------------------------------------------------------
Name          Type       Size  Value                             
-----------------------------------------------------------------
xtn           write_xtn  -     @6491                             
  Hsize       integral   3     'b10                              
  Htrans      integral   2     'b10                              
  Hwrite      integral   1     'b1                               
  Hwdata      integral   32    3684383251                        
  Haddr       integral   32    'b10000100000000000000001111100100
  Hburst      integral   3     'b0                               
  Hreadyin    integral   1     'b0                               
  Hreadyout   integral   1     'b0                               
  data_count  integral   32    'd0                               
  Hrdata      integral   32    'd0                               
-----------------------------------------------------------------
UVM_INFO scoreboard.sv(42) @ 690000: uvm_test_top.bridge_envh.sb1 [SB] WRITE data matched : Hwdata=710787414 Pwdata=710787414
                 710 ENTERED:&&
driver data
------------------------------------------------------------------------------------------------------------------
Name                           Type       Size  Value                                                             
------------------------------------------------------------------------------------------------------------------
req                            write_xtn  -     @6539                                                             
  begin_time                   time       64    670000                                                            
  depth                        int        32    'd2                                                               
  parent sequence (name)       string     10    seq1_wxtns                                                        
  parent sequence (full name)  string     66    uvm_test_top.bridge_envh.wagnt_top.agnth[0].m_sequencer.seq1_wxtns
  sequencer                    string     55    uvm_test_top.bridge_envh.wagnt_top.agnth[0].m_sequencer           
  Hsize                        integral   3     'b10                                                              
  Htrans                       integral   2     'b10                                                              
  Hwrite                       integral   1     'b1                                                               
  Hwdata                       integral   32    2499644539                                                        
  Haddr                        integral   32    'b10001100000000000000001111011100                                
  Hburst                       integral   3     'b111                                                             
  Hreadyin                     integral   1     'b0                                                               
  Hreadyout                    integral   1     'b0                                                               
  data_count                   integral   32    'd1                                                               
  Hrdata                       integral   32    'd0                                                               
------------------------------------------------------------------------------------------------------------------
Width = 32, size 32 bits
read_monitor display
------------------------------------
Name      Type      Size  Value     
------------------------------------
xtn       read_xtn  -     @6492     
  Pwdata  integral  32    'hdb9b3a13
  Prdata  integral  32    'h0       
  Paddr   integral  32    2214593508
  Pwrite  integral  1     'd0       
------------------------------------
write monitor display
-----------------------------------------------------------------
Name          Type       Size  Value                             
-----------------------------------------------------------------
xtn           write_xtn  -     @6490                             
  Hsize       integral   3     'b10                              
  Htrans      integral   2     'b10                              
  Hwrite      integral   1     'b1                               
  Hwdata      integral   32    2499644539                        
  Haddr       integral   32    'b10000100000000000000001111100100
  Hburst      integral   3     'b0                               
  Hreadyin    integral   1     'b0                               
  Hreadyout   integral   1     'b0                               
  data_count  integral   32    'd0                               
  Hrdata      integral   32    'd0                               
-----------------------------------------------------------------
UVM_INFO scoreboard.sv(42) @ 730000: uvm_test_top.bridge_envh.sb1 [SB] WRITE data matched : Hwdata=3684383251 Pwdata=3684383251
                 730 ENTERED:&&
                 730 ENTERED:&&
read_monitor display
------------------------------------
Name      Type      Size  Value     
------------------------------------
xtn       read_xtn  -     @6661     
  Pwdata  integral  32    'hdb9b3a13
  Prdata  integral  32    'h0       
  Paddr   integral  32    2214593508
  Pwrite  integral  1     'd0       
------------------------------------
write monitor display
-----------------------------------------------------------------
